Circuit: * D:\Dropbox\EV\2015 Hardware\Calc\peddle inputs\Draft1.asc

Ignoring empty pin current: Ix(u2:1)
Ignoring empty pin current: Ix(u2:4)
Direct Newton iteration for .op point succeeded.
Semiconductor Device Operating Points:
                        --- Diodes ---
Name:      d1        d:u2:3      d:u2:2      d:u2:1
Model:    1n750       u2:x      u2:300ua     u2:10ua
Id:     -6.53e-13   -3.01e-12    2.90e-04    1.00e-05
Vd:     -1.01e-05   -3.01e+00    4.19e+00    4.19e+00
Req:     2.78e+07    1.00e-12    1.67e-04    1.67e-04
CAP:     1.75e-10    0.00e+00    0.00e+00    0.00e+00

                        --- Bipolar Transistors ---
Name:     q:u2:1
Model:     u2:n
Ib:       6.72e-08
Ic:       6.72e-04
Vbe:      1.18e+00
Vbc:     -3.01e+00
Vce:      4.19e+00
BetaDC:   1.00e+04
Gm:       2.60e-02
Rpi:      3.85e+05
Rx:       0.00e+00
Ro:       8.67e+71
Cbe:      0.00e+00
Cbc:      0.00e+00
Cjs:      0.00e+00
BetaAC:   1.00e+04
Cbx:      0.00e+00
Ft:       0.00e+00



Date: Sun Jun 28 00:52:39 2015
Total elapsed time: 12.819 seconds.

tnom = 27
temp = 27
method = trap
totiter = 405
traniter = 0
tranpoints = 0
accept = 0
rejected = 0
matrix size = 11
fillins = 0
solver = Normal
Matrix Compiler1: 882 bytes object code size
Matrix Compiler2: off  [0.4]/0.5/0.6


